!Created with skrf (http://scikit-rf.org).
# GHz S RI R 50.0 
!freq ReS11 ImS11 ReS21 ImS21 ReS12 ImS12 ReS22 ImS22
0.1 -0.006992331615798625 -0.04416204401035148 0.9867083265890624 -0.15622899669144058 0.9867083265890626 -0.15622899669143991 -0.006992331615798708 -0.04416204401035222
0.1099 -0.008412641268667143 -0.04826679562458747 0.9839651233039974 -0.17149979600095172 0.9839651233039974 -0.17149979600095205 -0.008412641268667365 -0.04826679562458719
0.1198 -0.00995416264594376 -0.052297195020206765 0.9809704071566723 -0.18671630438156195 0.9809704071566722 -0.18671630438156211 -0.00995416264594362 -0.052297195020206584
0.1297 -0.011613516544561386 -0.056247115403614836 0.9777260469618285 -0.2018741324059095 0.9777260469618284 -0.20187413240590882 -0.011613516544561442 -0.0562471154036156
0.1396 -0.013387062085983892 -0.06011057203466254 0.9742340339949517 -0.21696901323528928 0.9742340339949525 -0.21696901323528883 -0.01338706208598428 -0.06011057203466294
0.1495 -0.015270903495747085 -0.06388173175843648 0.9704964729613892 -0.2319968099424449 0.970496472961389 -0.23199680994244495 -0.01527090349574689 -0.06388173175843645
0.1594 -0.017260897210166853 -0.06755492206987623 0.9665155724544257 -0.24695352221567196 0.9665155724544259 -0.24695352221567168 -0.017260897210166826 -0.06755492206987657
0.1693 -0.019352659267963257 -0.07112463969644134 0.9622936349438702 -0.2618352924145685 0.9622936349438704 -0.26183529241456877 -0.019352659267963146 -0.07112463969644103
0.1792 -0.021541572943458515 -0.07458555868801647 0.9578330463378522 -0.27663841095095154 0.9578330463378522 -0.2766384109509519 -0.021541572943458376 -0.07458555868801621
0.1891 -0.02382279657730077 -0.0779325380072598 0.953136265161464 -0.2913593209716119 0.9531362651614637 -0.2913593209716123 -0.02382279657730063 -0.07793253800725926
0.199 -0.02619127156030135 -0.08116062861766167 0.9482058113964422 -0.3059946223227695 0.9482058113964422 -0.30599462232276975 -0.026191271560301432 -0.08116062861766146
0.2089 -0.028641730425947365 -0.08426508007067086 0.9430442550264077 -0.3205410747791593 0.9430442550264078 -0.32054107477915933 -0.028641730425947365 -0.08426508007067093
0.2188 -0.0311687050074832 -0.08724134659729398 0.9376542043321816 -0.33499560052369426 0.9376542043321815 -0.3349956005236946 -0.031168705007483477 -0.0872413465972935
0.2287 -0.03376653461611684 -0.09008509271360068 0.9320382939814859 -0.34935528586652675 0.932038293981486 -0.3493552858665268 -0.033766534616116894 -0.0900850927136008
0.2386 -0.03642937419789874 -0.09279219835351235 0.9261991729568155 -0.36361738219505235 0.9261991729568154 -0.3636173821950526 -0.03642937419789882 -0.09279219835351231
0.2485 -0.0391512024281154 -0.09535876354610161 0.9201394923646043 -0.37777930614897387 0.9201394923646042 -0.3777793061489738 -0.03915120242811582 -0.09535876354610168
0.2584 -0.041925829703655826 -0.09778111265838281 0.9138618931678644 -0.39183863901687255 0.9138618931678643 -0.39183863901687305 -0.04192582970365577 -0.09778111265838259
0.2683 -0.04474690599567646 -0.10005579822818304 0.9073689938834458 -0.40579312535290457 0.9073689938834463 -0.4057931253529045 -0.04474690599567671 -0.10005579822818339
0.2782 -0.04760792852707332 -0.10217960441513821 0.900663378283817 -0.41964067081410134 0.9006633782838168 -0.41964067081410117 -0.04760792852707307 -0.10217960441513828
0.2881 -0.050502249241650254 -0.10414955010118138 0.8937475831419606 -0.4333793392204573 0.8937475831419607 -0.4333793392204571 -0.05050224924165059 -0.10414955010118171
0.298 -0.053423082034548514 -0.10596289167501076 0.8866240860565726 -0.4470073488413218 0.8866240860565726 -0.44700734884132154 -0.0534230820345486 -0.10596289167501109
0.3079 -0.05636350971634399 -0.10761712553798797 0.8792952933932949 -0.46052306791277675 0.879295293393295 -0.46052306791277664 -0.05636350971634396 -0.10761712553798798
0.3178 -0.059316490686324885 -0.10910999037168605 0.8717635283762539 -0.4739250093915004 0.8717635283762543 -0.4739250093915006 -0.05931649068632505 -0.10910999037168603
0.3277 -0.06227486529370008 -0.11043946920989309 0.8640310193627411 -0.48721182495119286 0.8640310193627407 -0.4872118249511929 -0.06227486529370008 -0.11043946920989262
0.3376 -0.06523136186896855 -0.11160379136026446 0.8560998883324727 -0.5003822982279267 0.8560998883324731 -0.5003822982279269 -0.06523136186896866 -0.1116037913602643
0.3475 -0.06817860241128251 -0.11260143422302529 0.8479721396215993 -0.5134353373208055 0.8479721396215993 -0.5134353373208055 -0.06817860241128243 -0.11260143422302528
0.3574 -0.07110910792142844 -0.1134311250561301 0.8396496489304351 -0.5263699665540534 0.8396496489304355 -0.5263699665540533 -0.07110910792142877 -0.11343112505613025
0.3673 -0.07401530337399723 -0.11409184273811734 0.8311341526329225 -0.5391853175061705 0.8311341526329223 -0.5391853175061707 -0.07401530337399714 -0.11409184273811725
0.3772 -0.07688952232639534 -0.11458281958152769 0.8224272374149921 -0.5518806193110156 0.8224272374149919 -0.5518806193110157 -0.07688952232639523 -0.11458281958152738
0.3871 -0.07972401116661831 -0.11490354325122154 0.8135303302684644 -0.564455188234729 0.8135303302684638 -0.5644551882347285 -0.0797240111666182 -0.1149035432512219
0.397 -0.08251093300608861 -0.11505375884319757 0.8044446888667878 -0.5769084165311978 0.8044446888667875 -0.5769084165311977 -0.0825109330060887 -0.11505375884319738
0.4069 -0.08524237122844416 -0.1150334711806039 0.7951713923489481 -0.5892397605774141 0.7951713923489484 -0.5892397605774145 -0.08524237122844402 -0.1150334711806038
0.4168 -0.08791033270988574 -0.11484294738457777 0.7857113325382075 -0.6014487282885331 0.7857113325382074 -0.601448728288533 -0.08791033270988591 -0.1148429473845779
0.4267 -0.09050675073161124 -0.1144827197782501 0.7760652056230428 -0.613534865810774 0.7760652056230428 -0.6135348658107738 -0.09050675073161107 -0.1144827197782501
0.4366 -0.09302348760997656 -0.11395358918282421 0.7662335043287813 -0.6254977434885467 0.7662335043287816 -0.6254977434885467 -0.09302348760997659 -0.11395358918282436
0.4465 -0.09545233707534626 -0.1132566286649957 0.7562165106099856 -0.6373369411003503 0.7562165106099857 -0.6373369411003503 -0.09545233707534628 -0.11325662866499583
0.4564 -0.09778502643615167 -0.11239318779512415 0.7460142888956665 -0.6490520323561313 0.7460142888956667 -0.6490520323561315 -0.09778502643615161 -0.11239318779512428
0.4663 -0.10001321857050183 -0.11136489747551095 0.7356266799219483 -0.660642568646957 0.7356266799219482 -0.6606425686469573 -0.10001321857050183 -0.11136489747551073
0.4762 -0.10212851379378154 -0.11017367539782912 0.7250532951898858 -0.6721080620360806 0.7250532951898855 -0.6721080620360803 -0.10212851379378163 -0.11017367539782914
0.4861 -0.10412245165708675 -0.10882173218818073 0.7142935120897689 -0.6834479674788312 0.7142935120897689 -0.6834479674788314 -0.1041224516570865 -0.10882173218818045
0.496 -0.10598651273810414 -0.10731157829738161 0.7033464697375164 -0.6946616642572948 0.7033464697375162 -0.6946616642572948 -0.10598651273810417 -0.10731157829738136
0.5059 -0.10771212049315934 -0.10564603169285913 0.692211065573622 -0.7057484366145272 0.692211065573622 -0.7057484366145272 -0.10771212049315926 -0.10564603169285931
0.5158 -0.10929064324668927 -0.1038282264069432 0.6808859527806622 -0.7167074535721554 0.6808859527806622 -0.7167074535721554 -0.10929064324668913 -0.10382822640694322
0.5257 -0.11071339640235506 -0.10186162199426069 0.6693695385815897 -0.7275377479147203 0.6693695385815894 -0.7275377479147205 -0.110713396402355 -0.10186162199426055
0.5356 -0.11197164496842951 -0.09975001394837671 0.6576599834879653 -0.7382381943241436 0.6576599834879655 -0.7382381943241436 -0.11197164496842948 -0.09975001394837665
0.5455 -0.1130566064990102 -0.09749754512462214 0.6457552015749305 -0.7488074866482843 0.6457552015749308 -0.7488074866482846 -0.11305660649901023 -0.09749754512462194
0.5554 -0.11395945456202222 -0.09510871821217293 0.6336528618681017 -0.7592441142888948 0.6336528618681018 -0.7592441142888948 -0.11395945456202211 -0.09510871821217286
0.5653 -0.11467132285492873 -0.09258840929374425 0.6213503909366961 -0.7695463376964182 0.621350390936696 -0.7695463376964182 -0.11467132285492898 -0.0925884092937446
0.5752 -0.1151833100995453 -0.08994188252564699 0.6088449767970667 -0.7797121629622269 0.6088449767970666 -0.779712162962227 -0.11518331009954513 -0.08994188252564708
0.5851 -0.11548648585836374 -0.08717480596425009 0.5961335742413999 -0.7897393155031318 0.5961335742413998 -0.7897393155031315 -0.11548648585836352 -0.0871748059642502
0.595 -0.11557189742633653 -0.08429326855699323 0.5832129117176195 -0.7996252128385595 0.5832129117176192 -0.7996252128385593 -0.11557189742633645 -0.08429326855699337
0.6049 -0.11543057796406628 -0.08130379830676827 0.5700794998984653 -0.8093669364678111 0.5700794998984651 -0.8093669364678112 -0.1154305779640662 -0.08130379830676814
0.6148 -0.11505355605081571 -0.07821338160759729 0.5567296420902417 -0.818961202863504 0.5567296420902419 -0.8189612028635039 -0.11505355605081574 -0.0782133816075973
0.6247 -0.11443186684854878 -0.07502948373686633 0.5431594466447367 -0.8284043336078817 0.5431594466447371 -0.8284043336078819 -0.11443186684854911 -0.07502948373686633
0.6346 -0.11355656508127882 -0.07176007047464555 0.529364841551209 -0.8376922247113663 0.5293648415512089 -0.8376922247113664 -0.11355656508127887 -0.07176007047464585
0.6445 -0.1124187400471727 -0.06841363080371923 0.5153415913989674 -0.8468203151677677 0.5153415913989674 -0.8468203151677678 -0.11241874004717278 -0.06841363080371912
0.6544 -0.11100953289397902 -0.06499920062445018 0.501085316914722 -0.855783554818224 0.501085316914722 -0.8557835548182237 -0.11100953289397919 -0.06499920062445005
0.6643 -0.10932015640115161 -0.06152638739642585 0.48659151729233496 -0.8645763716164789 0.4865915172923351 -0.8645763716164786 -0.10932015640115161 -0.061526387396426005
0.6742 -0.10734191752431652 -0.05800539559353768 0.47185559554558476 -0.8731926384118003 0.471855595545585 -0.8731926384118007 -0.10734191752431632 -0.05800539559353746
0.6841 -0.10506624296905029 -0.05444705283058003 0.45687288712665325 -0.8816256393929276 0.45687288712665336 -0.8816256393929277 -0.10506624296905043 -0.05444705283057964
0.694 -0.10248470807097823 -0.050862836487296614 0.4416386920639271 -0.889868036367268 0.4416386920639269 -0.8898680363672677 -0.10248470807097798 -0.050862836487296656
0.7039 -0.09958906926740418 -0.047264900619791134 0.4261483108817869 -0.8979118350842987 0.42614831088178684 -0.897911835084299 -0.09958906926740418 -0.04726490061979112
0.7138 -0.09637130045154463 -0.043666102909135945 0.4103970845718301 -0.9057483518510804 0.4103970845718301 -0.9057483518510804 -0.09637130045154468 -0.043666102909136195
0.7237 -0.09282363350321399 -0.04008003135267922 0.39438043888869523 -0.9133681807310723 0.39438043888869545 -0.9133681807310723 -0.09282363350321388 -0.04008003135267918
0.7336 -0.08893860328882491 -0.03652103035476571 0.3780939332436401 -0.9207611616652891 0.3780939332436401 -0.920761161665289 -0.08893860328882508 -0.03652103035476584
0.7435 -0.08470909741785929 -0.03300422582037679 0.36153331446429027 -0.927916349907207 0.3615333144642904 -0.9279163499072068 -0.08470909741785937 -0.033004225820376654
0.7534 -0.08012841103163179 -0.029545548797470955 0.34469457567862427 -0.934821987219778 0.34469457567862494 -0.9348219872197784 -0.08012841103163193 -0.02954554879747104
0.7633 -0.07519030688207365 -0.026161757151856833 0.3275740205641502 -0.9414654753442341 0.3275740205641501 -0.941465475344234 -0.07519030688207384 -0.026161757151856868
0.7732 -0.0698890809322148 -0.0228704546924161 0.31016833317815273 -0.9478333523157428 0.31016833317815246 -0.9478333523157427 -0.06988908093221469 -0.022870454692416192
0.7831 -0.06421963367475891 -0.019690107095048925 0.29247465355057994 -0.9539112722699807 0.2924746535505798 -0.9539112722699808 -0.06421963367475847 -0.019690107095048842
0.793 -0.05817754731924002 -0.016640053901446135 0.27449065917616977 -0.9596839894564806 0.27449065917616966 -0.9596839894564808 -0.05817754731923963 -0.016640053901446183
0.8029 -0.05175916894024479 -0.013740515794769257 0.2562146524853559 -0.9651353472483108 0.25621465248535585 -0.9651353472483107 -0.05175916894024468 -0.013740515794769148
0.8128 -0.04496169960766558 -0.011012596279779656 0.23764565430287898 -0.9702482730118749 0.23764565430287848 -0.9702482730118748 -0.044961699607665384 -0.011012596279779602
0.8227 -0.037783289433378 -0.00847827682160403 0.21878350321733972 -0.9750047797737598 0.21878350321733964 -0.9750047797737602 -0.0377832894333785 -0.008478276821604347
0.8326 -0.030223138365788077 -0.006160404427147051 0.1996289606828422 -0.9793859756915577 0.19962896068284183 -0.9793859756915575 -0.030223138365787938 -0.006160404427146909
0.8425 -0.02228160244302979 -0.004082670588669449 0.1801838215540415 -0.9833720823999517 0.18018382155404133 -0.9833720823999512 -0.022281602443030013 -0.004082670588669568
0.8524 -0.01396030507625401 -0.002269580453184237 0.16045102961736224 -0.9869424633591728 0.16045102961736207 -0.9869424633591728 -0.013960305076253898 -0.0022695804531842056
0.8623 -0.005262252775656784 -0.0007464110374599568 0.14043479752312818 -0.9900756633767576 0.14043479752312812 -0.990075663376758 -0.005262252775656506 -0.0007464110374598709
0.8722 0.003808045446575592 0.0004608427194813594 0.12014073034561346 -0.9927494605014335 0.12014073034561341 -0.9927494605014338 0.0038080454465758695 0.0004608427194812137
0.8821 0.013244455960084722 0.0013255352821069932 0.09957595180085335 -0.9949409314956795 0.09957595180085344 -0.9949409314956799 0.013244455960084611 0.0013255352821068545
0.892 0.02303909686677963 0.0018204524206184378 0.0787492319365505 -0.9966265320760586 0.07874923193655027 -0.9966265320760586 0.023039096866779518 0.0018204524206188732
0.9019 0.03318221423036061 0.0019179088402643818 0.05767111487643545 -0.997782193062875 0.05767111487643542 -0.997782193062875 0.033182214230360274 0.0019179088402646316
0.9118 0.043662059843373346 0.0015898626050511212 0.03635404495605907 -0.9983834334976038 0.03635404495605919 -0.9983834334976035 0.043662059843373235 0.0015898626050510067
0.9217 0.05446477244549816 0.0008080472989895416 0.014812489332285517 -0.9984054916624823 0.014812489332285576 -0.9984054916624825 0.05446477244549808 0.0008080472989895893
0.9316 0.06557426456566962 -0.00045587730234522734 -0.006936945109583731 -0.9978234747665063 -0.006936945109583569 -0.997823474766506 0.0655742645656694 -0.0004558773023453089
0.9415 0.07697211741621807 -0.002230155498450603 -0.028875402982236648 -0.9966125278409508 -0.028875402982236575 -0.996612527840951 0.07697211741621779 -0.002230155498450459
0.9514 0.08863748651092584 -0.004542746593420306 -0.05098168243074028 -0.9947480221116022 -0.050981682430740416 -0.9947480221116023 0.08863748651092584 -0.004542746593420466
0.9613 0.10054702090064394 -0.007421116546984019 -0.07323215087062326 -0.9922057627811196 -0.07323215087062324 -0.9922057627811195 0.10054702090064382 -0.0074211165469837415
0.9712 0.11267479910835801 -0.010892010798531197 -0.0956006775132103 -0.9889622157623978 -0.09560067751321012 -0.9889622157623978 0.11267479910835743 -0.010892010798531582
0.9811 0.12499228498753354 -0.014981209166553284 -0.11805858590334578 -0.9849947524530294 -0.11805858590334575 -0.9849947524530296 0.12499228498753379 -0.014981209166553378
0.991 0.13746830680936498 -0.019713264231596465 -0.14057462977607388 -0.9802819111355782 -0.1405746297760741 -0.9802819111355779 0.13746830680936517 -0.019713264231596694
1.0009 0.15006906289192365 -0.025111225164953826 -0.16311499554589604 -0.9748036730344815 -0.16311499554589615 -0.9748036730344818 0.15006906289192312 -0.02511122516495401
1.0108 0.16275815700286933 -0.031196349558117575 -0.18564333466060362 -0.9685417504678713 -0.18564333466060376 -0.9685417504678713 0.16275815700286933 -0.031196349558117537
1.0207 0.17549666658384205 -0.037987806426351384 -0.20812082886785555 -0.9614798839144946 -0.20812082886785543 -0.9614798839144946 0.17549666658384155 -0.037987806426351634
1.0306 0.18824324654709157 -0.045502374186425575 -0.23050629114486268 -0.9536041441895313 -0.23050629114486312 -0.9536041441895318 0.18824324654709124 -0.04550237418642533
1.0405 0.20095427097416574 -0.053754138022979486 -0.25275630462058407 -0.944903235308883 -0.2527563046205843 -0.9449032353088831 0.2009542709741664 -0.05375413802297968
1.0504 0.21358401449694092 -0.062754191635992 -0.2748254012700829 -0.9353687930438025 -0.27482540127008304 -0.9353687930438029 0.2135840144969413 -0.06275419163599225
1.0603 0.22608487446223813 -0.07251034887657937 -0.29666628148148466 -0.9249956736532019 -0.29666628148148444 -0.9249956736532017 0.22608487446223768 -0.07251034887657912
1.0702 0.2384076341774767 -0.08302687120115738 -0.31823007479199206 -0.9137822268584169 -0.31823007479199206 -0.9137822268584167 0.23840763417747673 -0.08302687120115712
1.0801 0.25050176661768925 -0.09430421717541204 -0.3394666411721624 -0.9017305468240714 -0.33946664117216274 -0.9017305468240715 0.25050176661768864 -0.0943042171754121
1.09 0.26231577696198344 -0.10633882041112229 -0.3603249112252606 -0.8888466947572625 -0.36032491122526034 -0.888846694757262 0.2623157769619834 -0.10633882041112208
1.0999 0.273797581245924 -0.1191229022946145 -0.38075326258677833 -0.875140886761848 -0.3807532625867787 -0.8751408867618476 0.27379758124592346 -0.11912290229461425
1.1098 0.28489491729765276 -0.1326443256441217 -0.4006999286904607 -0.8606276408063123 -0.4006999286904607 -0.8606276408063123 0.2848949172976529 -0.13264432564412124
1.1197 0.2955557830086563 -0.1468864949993354 -0.4201134349501553 -0.8453258770978986 -0.4201134349501552 -0.8453258770978987 0.29555578300865637 -0.1468864949993356
1.1296 0.3057288959184707 -0.16182830859312722 -0.43894305633514374 -0.8292589668092365 -0.43894305633514397 -0.8292589668092366 0.3057288959184704 -0.1618283085931271
1.1395 0.31536416711292825 -0.17744416618527736 -0.45713928933682413 -0.8124547249740167 -0.4571392893368239 -0.8124547249740166 0.3153641671129277 -0.17744416618527684
1.1494 0.3244131815950422 -0.1937040358646426 -0.47465433048407596 -0.7949453444418959 -0.47465433048407624 -0.7949453444418966 0.3244131815950424 -0.19370403586464255
1.1593 0.3328296766318963 -0.2105735816738865 -0.49144255290885464 -0.7767672690353054 -0.4914425529088546 -0.7767672690353055 0.33282967663189644 -0.21057358167388676
1.1692 0.34057000915038865 -0.22801435251529367 -0.5074609720330171 -0.7579610054466124 -0.5074609720330173 -0.757961005446613 0.34057000915038926 -0.22801435251529353
1.1791 0.3475936030827098 -0.24598403130260735 -0.5226696912753764 -0.738570874907886 -0.5226696912753765 -0.7385708749078862 0.34759360308270937 -0.24598403130260718
1.189 0.35386336767161597 -0.26443674178572985 -0.537032318787148 -0.7186447072037401 -0.5370323187871483 -0.7186447072037401 0.35386336767161586 -0.26443674178572973
1.1989 0.3593460781468029 -0.2833234089515769 -0.5505163466251849 -0.6982334811214862 -0.550516346625185 -0.6982334811214865 0.3593460781468024 -0.2833234089515766
1.2088 0.3640127108736659 -0.30259216745684664 -0.5630934844623782 -0.6773909168804901 -0.5630934844623781 -0.6773909168804902 0.36401271087366616 -0.3025921674568472
1.2187 0.36783872603740064 -0.3221888112374483 -0.5747399408962516 -0.6561730273938071 -0.5747399408962516 -0.6561730273938071 0.36783872603740064 -0.32218881123744836
1.2286 0.3708042921274791 -0.3420572763207266 -0.5854366466188958 -0.6346376363339216 -0.5854366466188957 -0.6346376363339213 0.3708042921274789 -0.3420572763207264
1.2385 0.3728944478865429 -0.36214014798837146 -0.5951694151103721 -0.6128438718527982 -0.5951694151103721 -0.6128438718527981 0.37289444788654347 -0.3621401479883718
1.2484 0.3740991989299847 -0.38237918283688127 -0.603929038059976 -0.590851645407622 -0.603929038059976 -0.5908516454076221 0.37409919892998444 -0.3823791828368812
